!File created by NanoVNA
# Hz S RI R 50
50000  0.034965920 -0.040108284  0.955972928 -0.007066909 0 0 0 0
2049500  0.020883564 -0.035958288  0.917860992 -0.261745696 0 0 0 0
4049000 -0.012318129 -0.096794304  0.848774336 -0.425256928 0 0 0 0
6048500 -0.059237908 -0.142256208  0.752517696 -0.572984384 0 0 0 0
8048000 -0.111299864 -0.168343344  0.630483200 -0.701113600 0 0 0 0
10047500 -0.161739136 -0.170090864  0.477172032 -0.809299392 0 0 0 0
12047000 -0.203489184 -0.150377712  0.294219392 -0.887552256 0 0 0 0
14046500 -0.228155088 -0.121454848  0.095808712 -0.925685440 0 0 0 0
16046000 -0.232838688 -0.093081312 -0.111463264 -0.919282432 0 0 0 0
18045500 -0.218939504 -0.077041888 -0.318608544 -0.863644928 0 0 0 0
20045000 -0.194591104 -0.086114296 -0.513282656 -0.753175360 0 0 0 0
22044500 -0.177270224 -0.130015360 -0.678767168 -0.586433600 0 0 0 0
24044000 -0.194129376 -0.205833456 -0.791021312 -0.367429824 0 0 0 0
26043500 -0.270876832 -0.288302048 -0.822843584 -0.115524384 0 0 0 0
28043000 -0.408703552 -0.332480512 -0.756873664  0.128912168 0 0 0 0
30042500 -0.572892544 -0.303593280 -0.606441408  0.315313344 0 0 0 0
32042000 -0.716256192 -0.203201552 -0.417265248  0.412124416 0 0 0 0
34041500 -0.810717184 -0.059198848 -0.239820752  0.425079104 0 0 0 0
36041000 -0.853088960  0.098774120 -0.103456184  0.384252512 0 0 0 0
38040500 -0.852480128  0.252377040 -0.012542194  0.320120608 0 0 0 0
40040000 -0.820152064  0.391836384  0.040753628  0.253288384 0 0 0 0
42039500 -0.765180992  0.514218880  0.067994096  0.193717616 0 0 0 0
44039000 -0.694787584  0.619147712  0.078448640  0.144611168 0 0 0 0
46038500 -0.613832896  0.707405888  0.079102456  0.105742824 0 0 0 0
48038000 -0.525154944  0.780727808  0.074231112  0.075608296 0 0 0 0
50037500 -0.431476672  0.839551104  0.066671408  0.052991404 0 0 0 0
52037000 -0.334639680  0.884782336  0.058136688  0.036162488 0 0 0 0
54036500 -0.236095712  0.917866048  0.049454120  0.023971006 0 0 0 0
56036000 -0.136569824  0.939200064  0.041074660  0.015088222 0 0 0 0
58035500 -0.037307820  0.949400448  0.033527140  0.008878619 0 0 0 0
60035000  0.060641584  0.949080256  0.026745058  0.004730037 0 0 0 0
62034500  0.156677632  0.938837056  0.020664404  0.002074873 0 0 0 0
64034000  0.250036480  0.919119808  0.015560051  0.000636720 0 0 0 0
66033500  0.340115232  0.890524352  0.010936760 -0.000021919 0 0 0 0
68033000  0.426068608  0.853370624  0.007136236  0.000066768 0 0 0 0
70032500  0.507467680  0.808080384  0.003944233  0.000717379 0 0 0 0
72032000  0.583603200  0.755404480  0.001215742  0.001673761 0 0 0 0
74031500  0.654151232  0.695964864 -0.001018136  0.003108268 0 0 0 0
76031000  0.718228608  0.630162624 -0.002875799  0.004891382 0 0 0 0
78030500  0.775450688  0.558845824 -0.004277028  0.006792987 0 0 0 0
80030000  0.825532032  0.482587680 -0.005343218  0.009271486 0 0 0 0
82029500  0.867641408  0.401892736 -0.005976439  0.012131284 0 0 0 0
84029000  0.902000640  0.316880448 -0.006130427  0.015731328 0 0 0 0
86028500  0.927780288  0.228610320 -0.005598308  0.020359992 0 0 0 0
88028000  0.943796864  0.137908064 -0.003389991  0.026446818 0 0 0 0
90027500  0.948589760  0.045724928  0.001973077  0.034070424 0 0 0 0
92027000  0.939496704 -0.044914708  0.014325347  0.042884452 0 0 0 0
94026500  0.913345728 -0.124128936  0.041119176  0.042658452 0 0 0 0
96026000  0.894863680 -0.177966368  0.060250256  0.009540782 0 0 0 0
98025500  0.894844864 -0.248197648  0.042924600 -0.013491242 0 0 0 0
100025000  0.878571328 -0.328612384  0.031317134 -0.019228320 0 0 0 0
102024500  0.853926336 -0.410300032  0.019038822 -0.019890676 0 0 0 0
104024000  0.816370432 -0.489187776  0.013434455 -0.016774461 0 0 0 0
106023500  0.771221696 -0.561875328  0.010552740 -0.015392046 0 0 0 0
108023000  0.720335616 -0.629689408  0.007277902 -0.013920653 0 0 0 0
110022500  0.663164032 -0.692255552  0.005533808 -0.012022108 0 0 0 0
112022000  0.600901056 -0.748395712  0.004635418 -0.010629690 0 0 0 0
114021500  0.534364000 -0.797788416  0.003941486 -0.010121146 0 0 0 0
116021000  0.464290560 -0.841377088  0.003031144 -0.009461740 0 0 0 0
118020500  0.391145280 -0.878820736  0.002217579 -0.008495132 0 0 0 0
120020000  0.317106208 -0.912167552  0.001627883 -0.007587034 0 0 0 0
122019500  0.237728496 -0.933279552  0.001531431 -0.007029305 0 0 0 0
124019000  0.159575520 -0.950256896  0.001438562 -0.006138497 0 0 0 0
126018500  0.080106320 -0.959746624  0.001823785 -0.005686600 0 0 0 0
128018000  0.001458776 -0.963248192  0.001935786 -0.005453513 0 0 0 0
130017500 -0.077929320 -0.958215168  0.001878589 -0.004878103 0 0 0 0
132017000 -0.153976912 -0.950389952  0.002645269 -0.004399522 0 0 0 0
134016500 -0.229182960 -0.934700736  0.003277028 -0.004265440 0 0 0 0
136016000 -0.303193792 -0.910433920  0.003895696 -0.003915313 0 0 0 0
138015500 -0.373084928 -0.885673856  0.004822020 -0.004629806 0 0 0 0
140015000 -0.440853728 -0.853923456  0.005240714 -0.004898120 0 0 0 0
142014500 -0.505315904 -0.816327040  0.005993843 -0.004816476 0 0 0 0
144014000 -0.566969088 -0.776609600  0.007211285 -0.005057241 0 0 0 0
146013500 -0.624450048 -0.728319616  0.008890599 -0.005948319 0 0 0 0
148013000 -0.677425344 -0.677343744  0.010219173 -0.007401662 0 0 0 0
150012500 -0.726144192 -0.623190656  0.011511262 -0.009227116 0 0 0 0
152012000 -0.770269184 -0.566074112  0.012676484 -0.011287549 0 0 0 0
154011500 -0.809625536 -0.506115008  0.013720092 -0.013778797 0 0 0 0
156011000 -0.844158080 -0.443720128  0.014548233 -0.016845526 0 0 0 0
158010500 -0.873765568 -0.379107008  0.015226997 -0.020275518 0 0 0 0
160010000 -0.898181440 -0.312525504  0.015427241 -0.024514166 0 0 0 0
162009500 -0.917057408 -0.244544368  0.014932557 -0.029829528 0 0 0 0
164009000 -0.930309120 -0.175645488  0.013036772 -0.035491308 0 0 0 0
166008500 -0.938034176 -0.106796680  0.009397788 -0.041074292 0 0 0 0
168008000 -0.940620800 -0.038484040  0.004871617 -0.045496964 0 0 0 0
170007500 -0.939087488  0.030048424  0.000749229 -0.049106672 0 0 0 0
172007000 -0.932825280  0.098540384 -0.002623931 -0.053454916 0 0 0 0
174006500 -0.920967936  0.167326064 -0.007132419 -0.059824932 0 0 0 0
176006000 -0.903340352  0.234950000 -0.013258149 -0.066507340 0 0 0 0
178005500 -0.878515392  0.302061120 -0.022305804 -0.077041752 0 0 0 0
180005000 -0.846588864  0.365719520 -0.037187108 -0.086395728 0 0 0 0
182004500 -0.807734528  0.425473376 -0.056805552 -0.094985344 0 0 0 0
184004000 -0.760194624  0.478478144 -0.086687504 -0.100896920 0 0 0 0
186003500 -0.707300864  0.520568480 -0.123923224 -0.095264976 0 0 0 0
188003000 -0.651819584  0.550891008 -0.167176768 -0.075749496 0 0 0 0
190002500 -0.602111488  0.560579392 -0.211194528 -0.027106474 0 0 0 0
192002000 -0.576989632  0.564262208 -0.220097696  0.048618236 0 0 0 0
194001500 -0.565366656  0.582913664 -0.191974992  0.112744008 0 0 0 0
196001000 -0.555506944  0.618299264 -0.141538464  0.155481584 0 0 0 0
198000500 -0.535060096  0.668297984 -0.086274312  0.165756608 0 0 0 0
200000000 -0.496921952  0.719749376 -0.047967980  0.157358144 0 0 0 0
