!File created by NanoVNA
# Hz S RI R 50
50000  0.997852736 -0.033347108
362375  0.930168896 -0.213114448
674750  0.816179392 -0.321198816
987125  0.712634112 -0.370365152
1299500  0.633957056 -0.392339840
1611875  0.575372736 -0.405370400
1924250  0.529907168 -0.416942880
2236625  0.492346880 -0.429338336
2549000  0.459415808 -0.443180192
2861375  0.429006368 -0.458162592
3173750  0.399887680 -0.473832992
3486125  0.371262656 -0.489830720
3798500  0.342748736 -0.505781952
4110875  0.314055488 -0.521274624
4423250  0.285003488 -0.536125952
4735625  0.255584896 -0.550054528
5048000  0.225774368 -0.562906560
5360375  0.195659440 -0.574607104
5672750  0.165244528 -0.584925376
5985125  0.134621920 -0.593848704
6297500  0.103949520 -0.601344960
6609875  0.073178760 -0.607358592
6922250  0.042478104 -0.611889216
7234625  0.011958012 -0.614876288
7547000 -0.018340658 -0.616397760
7859375 -0.048273464 -0.616428544
8171750 -0.077806656 -0.614974272
8484125 -0.106844208 -0.612113728
8796500 -0.135350384 -0.607888192
9108875 -0.163548784 -0.602113792
9421250 -0.192749904 -0.594082048
9733625 -0.221226272 -0.584631872
10046000 -0.248918080 -0.573767296
10358375 -0.275857568 -0.561581056
10670750 -0.301932448 -0.548092928
10983125 -0.327068864 -0.533339136
11295500 -0.351224992 -0.517403776
11607875 -0.374340768 -0.500344864
11920250 -0.396396416 -0.482188320
12232625 -0.417339008 -0.462952128
12545000 -0.437056256 -0.442776896
12857375 -0.455626144 -0.421649920
13169750 -0.473010560 -0.399725376
13482125 -0.489072576 -0.376910336
13794500 -0.503606016 -0.353205600
14106875 -0.516661600 -0.328781120
14419250 -0.528714240 -0.303811552
14731625 -0.538959296 -0.278122336
15044000 -0.547972032 -0.251937056
15356375 -0.555407040 -0.225206848
15668750 -0.561336640 -0.198055936
15981125 -0.565379072 -0.170476416
16293500 -0.567767488 -0.142514272
16605875 -0.568141760 -0.114391936
16918250 -0.566769216 -0.086035672
17230625 -0.563667968 -0.057608948
17543000 -0.558596800 -0.029150372
17855375 -0.551560256 -0.000758937
18167750 -0.542365696  0.027387794
18480125 -0.531014208  0.055312820
18792500 -0.517444608  0.082712432
19104875 -0.501495648  0.109519568
19417250 -0.483057824  0.135462352
19729625 -0.462076576  0.160340784
20042000 -0.438539136  0.183957216
20354375 -0.412483872  0.206087232
20666750 -0.383830592  0.226403280
20979125 -0.352446848  0.244560192
21291500 -0.318572736  0.260245232
21603875 -0.282277920  0.273074016
21916250 -0.243473504  0.282608160
22228625 -0.202489328  0.288315488
22541000 -0.159444144  0.289664160
22853375 -0.114927848  0.286294208
23165750 -0.069466000  0.277934720
23478125 -0.023410778  0.263802176
23790500  0.022417140  0.243622944
24102875  0.067183112  0.217001424
24415250  0.109939720  0.183846080
24727625  0.149557792  0.144241072
25040000  0.185042352  0.097957656
25352375  0.215136928  0.046087108
25664750  0.238618112 -0.010550394
25977125  0.254740272 -0.071383512
26289500  0.262579088 -0.134937264
26601875  0.261712944 -0.200060912
26914250  0.251945760 -0.265306864
27226625  0.233320896 -0.329009120
27539000  0.206186528 -0.389880576
27851375  0.171517856 -0.446575136
28163750  0.130072904 -0.497907904
28476125  0.082842352 -0.543084864
28788500  0.031320308 -0.581557760
29100875 -0.023382030 -0.613068672
29413250 -0.080112640 -0.637544192
29725625 -0.137802560 -0.655196800
30038000 -0.195406544 -0.666302272
30350375 -0.252171792 -0.671402048
30662750 -0.307443136 -0.670958848
30975125 -0.360757376 -0.665620672
31287500 -0.411546752 -0.655760320
31599875 -0.459761792 -0.642157696
31912250 -0.505178496 -0.625351040
32224625 -0.547825088 -0.605819200
32537000 -0.587470464 -0.583965120
32849375 -0.624215936 -0.560221056
33161750 -0.658094016 -0.534922368
33474125 -0.689082048 -0.508347264
33786500 -0.717458112 -0.480828832
34098875 -0.743261184 -0.452657760
34411250 -0.766592256 -0.423909472
34723625 -0.787768832 -0.394874560
35036000 -0.807039296 -0.365816992
35348375 -0.824483136 -0.336772736
35660750 -0.839859456 -0.307613024
35973125 -0.853616768 -0.278651040
36285500 -0.865721792 -0.249835680
36597875 -0.876723072 -0.221365616
36910250 -0.886211008 -0.193166880
37222625 -0.894417408 -0.165354672
37535000 -0.901404352 -0.137887872
37847375 -0.907275648 -0.110872624
38159750 -0.912230784 -0.084267824
38472125 -0.916163264 -0.058069460
38784500 -0.919114048 -0.032316968
39096875 -0.921147648 -0.006999378
39409250 -0.922186176  0.017859972
39721625 -0.922177792  0.042230848
40034000 -0.921652672  0.066158132
40346375 -0.920671552  0.089677200
40658750 -0.919316928  0.112766816
40971125 -0.917314240  0.135462096
41283500 -0.914747776  0.157671344
41595875 -0.911396096  0.179405744
41908250 -0.907500224  0.200757056
42220625 -0.903332864  0.221710048
42533000 -0.898484352  0.242168864
42845375 -0.892995968  0.262174368
43157750 -0.886646464  0.281585056
43470125 -0.879986752  0.300528576
43782500 -0.873950528  0.319468224
44094875 -0.867870528  0.338141120
44407250 -0.861358848  0.356439168
44719625 -0.854275840  0.374207904
45032000 -0.846095296  0.391136704
45344375 -0.838319808  0.408155392
45656750 -0.830221568  0.424889568
45969125 -0.821908672  0.441230048
46281500 -0.813150720  0.457110400
46593875 -0.804217920  0.472728896
46906250 -0.795141568  0.488036000
47218625 -0.786060544  0.503209056
47531000 -0.776766144  0.517984736
47843375 -0.767194240  0.532561472
48155750 -0.757328128  0.546631168
48468125 -0.747401472  0.560521344
48780500 -0.737210752  0.573998208
49092875 -0.726961728  0.587232192
49405250 -0.716575424  0.600217088
49717625 -0.705142400  0.612072512
50030000 -0.694189760  0.624192832
50342375 -0.683666944  0.636508416
50654750 -0.672451200  0.648141120
50967125 -0.661586048  0.659826368
51279500 -0.650405504  0.671067584
51591875 -0.638825088  0.681720896
51904250 -0.627469248  0.692580224
52216625 -0.616028288  0.703122560
52529000 -0.604069824  0.712985728
52841375 -0.591669696  0.722027712
53153750 -0.580150976  0.732099648
53466125 -0.568763520  0.742246144
53778500 -0.556776768  0.751446528
54090875 -0.544609920  0.760343040
54403250 -0.532438944  0.769133568
54715625 -0.520122464  0.777524224
55028000 -0.507574912  0.785440960
55340375 -0.495034304  0.793216704
55652750 -0.482542784  0.800941504
55965125 -0.469989920  0.808435008
56277500 -0.457363264  0.815715328
56589875 -0.444655520  0.822700224
56902250 -0.431943808  0.829445120
57214625 -0.419147392  0.835992576
57527000 -0.406285408  0.842353664
57839375 -0.393338496  0.848333632
58151750 -0.380141248  0.853525056
58464125 -0.366771232  0.858238976
58776500 -0.353436896  0.862644864
59088875 -0.340228896  0.867166080
59401250 -0.327266496  0.872132288
59713625 -0.314230176  0.877257408
60026000 -0.301200224  0.882016960
60338375 -0.288172256  0.886466752
60650750 -0.275118624  0.890677184
60963125 -0.261638496  0.893480192
61275500 -0.247907792  0.895432128
61587875 -0.234849696  0.898988224
61900250 -0.221727408  0.902346496
62212625 -0.208695296  0.905664704
62525000 -0.195671328  0.908765312
62837375 -0.182740464  0.912262272
63149750 -0.169823696  0.915938112
63462125 -0.156831136  0.918764608
63774500 -0.143770624  0.921492352
64086875 -0.130630704  0.923491008
64399250 -0.117500808  0.925188480
64711625 -0.104382216  0.926824896
65024000 -0.091260424  0.927872640
65336375 -0.078047216  0.927460224
65648750 -0.065008672  0.928705920
65961125 -0.051972268  0.928805632
66273500 -0.038926624  0.928055616
66585875 -0.026057712  0.930098368
66898250 -0.013123607  0.931657792
67210625 -0.000173648  0.930739072
67523000  0.012732473  0.929978880
67835375  0.025577086  0.930163712
68147750  0.038514512  0.930620992
68460125  0.051314088  0.929548672
68772500  0.064289852  0.931368896
69084875  0.077101240  0.931278784
69397250  0.089856368  0.930616384
69709625  0.102575488  0.929786624
70022000  0.115142208  0.927714624
70334375  0.127778304  0.926246976
70646750  0.140418480  0.924842624
70959125  0.153095552  0.923419392
71271500  0.165775600  0.922108288
71583875  0.178239776  0.919886080
71896250  0.190649040  0.917063680
72208625  0.202365344  0.911290816
72521000  0.214488448  0.907569600
72833375  0.226672672  0.904720000
73145750  0.239024464  0.902215808
73458125  0.251230208  0.899194304
73770500  0.263319168  0.895946496
74082875  0.275337952  0.892447168
74395250  0.287236352  0.888616640
74707625  0.298822592  0.883885184
75020000  0.310709568  0.880185984
75332375  0.322557120  0.876294784
75644750  0.334145280  0.871880896
75957125  0.345492224  0.866941056
76269500  0.357148096  0.862784064
76581875  0.368615584  0.858144768
76894250  0.379988256  0.853412480
77206625  0.391279936  0.848397824
77519000  0.402499520  0.843348928
77831375  0.413623232  0.838098304
78143750  0.424628512  0.832691776
78456125  0.435530144  0.827087104
78768500  0.446319744  0.821397120
79080875  0.456996320  0.815500160
79393250  0.467634464  0.809448704
79705625  0.478146240  0.803356096
80018000  0.488580992  0.797068032
80330375  0.498941952  0.790709440
80642750  0.509593920  0.784787072
80955125  0.520208256  0.778805888
81267500  0.529670304  0.771036352
81579875  0.540053824  0.764740160
81892250  0.549931200  0.757991296
82204625  0.559834624  0.751120000
82517000  0.569743104  0.744098432
82829375  0.579607808  0.736803648
83141750  0.589020224  0.729090304
83454125  0.597700672  0.720534464
83766500  0.606387584  0.712073920
84078875  0.615165568  0.703758912
84391250  0.623846144  0.695386112
84703625  0.631939648  0.686295232
85016000  0.640308352  0.677549248
85328375  0.649033536  0.669276992
85640750  0.657377536  0.660595264
85953125  0.665849344  0.652088256
86265500  0.674518080  0.643739904
86577875  0.683049536  0.635321024
86890250  0.691312448  0.626593216
87202625  0.698992384  0.617310208
87515000  0.705704704  0.607119680
87827375  0.714203648  0.598666368
88139750  0.722168576  0.589649984
88452125  0.729586048  0.580274752
88764500  0.737210624  0.571089216
89076875  0.744731456  0.561720704
89389250  0.752050624  0.552289920
89701625  0.759223872  0.542710464
90014000  0.766298624  0.533098112
90326375  0.773276544  0.523461472
90638750  0.780034304  0.513628608
90951125  0.786617792  0.503764640
91263500  0.793059136  0.493740224
91575875  0.799336192  0.483704192
91888250  0.805506048  0.473592864
92200625  0.811532928  0.463383008
92513000  0.817471104  0.453146752
92825375  0.823275968  0.442794624
93137750  0.828900480  0.432451168
93450125  0.834370176  0.421974624
93762500  0.839635136  0.411421344
94074875  0.844786304  0.400878176
94387250  0.849872128  0.390223104
94699625  0.854805248  0.379563552
95012000  0.859595776  0.368833568
95324375  0.864244096  0.358046368
95636750  0.868730496  0.347225856
95949125  0.873087104  0.336370560
96261500  0.877311616  0.325401248
96573875  0.881425536  0.314445856
96886250  0.885380608  0.303430016
97198625  0.889193408  0.292385504
97511000  0.892872320  0.281296512
97823375  0.896390656  0.270126336
98135750  0.899779712  0.258966096
98448125  0.903006592  0.247753024
98760500  0.906113664  0.236469472
99072875  0.909076672  0.225243472
99385250  0.911904064  0.213932592
99697625  0.914545472  0.202561536
100010000  0.916973504  0.191181664
100322375  0.919361344  0.179789840
100634750  0.921620736  0.168367952
100947125  0.923713984  0.156969632
101259500  0.925728192  0.145489120
101571875  0.927558720  0.134024368
101884250  0.929210368  0.122479960
102196625  0.930736640  0.110965440
102509000  0.932121408  0.099441224
102821375  0.933418304  0.087886256
103133750  0.934549568  0.076340616
103446125  0.935526912  0.064754256
103758500  0.936337856  0.053199152
104070875  0.937013120  0.041579116
104383250  0.937526784  0.030032376
104695625  0.937924096  0.018416026
105008000  0.938178240  0.006803461
105320375  0.938252480 -0.004789063
105632750  0.938226496 -0.016264163
105945125  0.938019008 -0.027878108
106257500  0.937694656 -0.039437564
106569875  0.937207680 -0.050960584
106882250  0.936660480 -0.062497864
107194625  0.935871232 -0.074004376
107507000  0.934982336 -0.085498280
107819375  0.933946048 -0.096940136
108131750  0.932800704 -0.108387608
108444125  0.931479232 -0.119836464
108756500  0.930048064 -0.131228504
109068875  0.928490304 -0.142627248
109381250  0.926802816 -0.154004832
109693625  0.924891904 -0.165328944
110006000  0.922902720 -0.176594464
110318375  0.920813952 -0.187863952
110630750  0.918538560 -0.199122016
110943125  0.916076992 -0.210295616
111255500  0.913573376 -0.221490256
111567875  0.910875520 -0.232599552
111880250  0.908005824 -0.243700784
112192625  0.905139968 -0.254761872
112505000  0.901983232 -0.265791152
112817375  0.898786688 -0.276765216
113129750  0.895442560 -0.287687520
113442125  0.891959232 -0.298569856
113754500  0.888320064 -0.309430848
114066875  0.884570240 -0.320219680
114379250  0.880692160 -0.330967360
114691625  0.876622592 -0.341665600
115004000  0.872496384 -0.352319168
115316375  0.868213568 -0.362948864
115628750  0.863785792 -0.373498656
115941125  0.859350144 -0.383916160
116253500  0.854690880 -0.394369472
116565875  0.849897792 -0.404765504
116878250  0.844955072 -0.415061824
117190625  0.839980224 -0.425326592
117503000  0.834784192 -0.435432128
117815375  0.829516608 -0.445564672
118127750  0.824108800 -0.455612128
118440125  0.818615168 -0.465554816
118752500  0.812957376 -0.475427040
119064875  0.807224512 -0.485242912
119377250  0.801355328 -0.494976640
119689625  0.795400960 -0.504702816
120002000  0.791521536 -0.517137344
120314375  0.787450816 -0.527404960
120626750  0.777750336 -0.534575520
120939125  0.771149056 -0.543795712
121251500  0.764568128 -0.552981824
121563875  0.758077120 -0.562277568
121876250  0.751119872 -0.571249664
122188625  0.744595200 -0.580403776
122501000  0.738068864 -0.589524416
122813375  0.731122176 -0.598697024
123125750  0.726089920 -0.616555776
123438125  0.721336128 -0.621853504
123750500  0.716028544 -0.633725504
124062875  0.702844736 -0.634473344
124375250  0.693943232 -0.640827776
124687625  0.686274112 -0.648899840
125000000  0.678800768 -0.657624768
